                        UCC27511A IGBT Gate Driver Test
                        Transient Analysis  Tue Dec  9 19:16:17  2025
--------------------------------------------------------------------------------
Index   time            v(gate)         v(outh)         v(outl)         
--------------------------------------------------------------------------------
0	1.000000e-09	0.000000e+00	0.000000e+00	0.000000e+00	
1	2.000000e-09	0.000000e+00	0.000000e+00	0.000000e+00	
2	4.000000e-09	0.000000e+00	0.000000e+00	0.000000e+00	
3	8.000000e-09	0.000000e+00	0.000000e+00	0.000000e+00	
4	1.600000e-08	0.000000e+00	0.000000e+00	0.000000e+00	
5	3.200000e-08	0.000000e+00	0.000000e+00	0.000000e+00	
6	6.400000e-08	0.000000e+00	0.000000e+00	0.000000e+00	
7	1.000000e-07	0.000000e+00	0.000000e+00	0.000000e+00	
8	1.064000e-07	0.000000e+00	0.000000e+00	0.000000e+00	
9	1.192000e-07	0.000000e+00	0.000000e+00	0.000000e+00	
10	1.448000e-07	0.000000e+00	0.000000e+00	0.000000e+00	
11	1.960000e-07	0.000000e+00	0.000000e+00	0.000000e+00	
12	2.960000e-07	0.000000e+00	0.000000e+00	0.000000e+00	
13	3.960000e-07	0.000000e+00	0.000000e+00	0.000000e+00	
14	4.960000e-07	0.000000e+00	0.000000e+00	0.000000e+00	
15	5.960000e-07	0.000000e+00	0.000000e+00	0.000000e+00	
16	6.960000e-07	0.000000e+00	0.000000e+00	0.000000e+00	
17	7.960000e-07	0.000000e+00	0.000000e+00	0.000000e+00	
18	8.960000e-07	0.000000e+00	0.000000e+00	0.000000e+00	
19	9.960000e-07	0.000000e+00	0.000000e+00	0.000000e+00	
20	1.096000e-06	0.000000e+00	0.000000e+00	0.000000e+00	
21	1.196000e-06	0.000000e+00	0.000000e+00	0.000000e+00	
22	1.296000e-06	0.000000e+00	0.000000e+00	0.000000e+00	
23	1.396000e-06	0.000000e+00	0.000000e+00	0.000000e+00	
24	1.496000e-06	0.000000e+00	0.000000e+00	0.000000e+00	
25	1.596000e-06	0.000000e+00	0.000000e+00	0.000000e+00	
26	1.696000e-06	0.000000e+00	0.000000e+00	0.000000e+00	
27	1.796000e-06	0.000000e+00	0.000000e+00	0.000000e+00	
28	1.896000e-06	0.000000e+00	0.000000e+00	0.000000e+00	
29	1.996000e-06	0.000000e+00	0.000000e+00	0.000000e+00	
30	2.096000e-06	0.000000e+00	0.000000e+00	0.000000e+00	
31	2.196000e-06	0.000000e+00	0.000000e+00	0.000000e+00	
32	2.296000e-06	0.000000e+00	0.000000e+00	0.000000e+00	
33	2.396000e-06	0.000000e+00	0.000000e+00	0.000000e+00	
34	2.496000e-06	0.000000e+00	0.000000e+00	0.000000e+00	
35	2.596000e-06	0.000000e+00	0.000000e+00	0.000000e+00	
36	2.696000e-06	0.000000e+00	0.000000e+00	0.000000e+00	
37	2.796000e-06	0.000000e+00	0.000000e+00	0.000000e+00	
38	2.896000e-06	0.000000e+00	0.000000e+00	0.000000e+00	
39	2.996000e-06	0.000000e+00	0.000000e+00	0.000000e+00	
40	3.096000e-06	0.000000e+00	0.000000e+00	0.000000e+00	
41	3.196000e-06	0.000000e+00	0.000000e+00	0.000000e+00	
42	3.296000e-06	0.000000e+00	0.000000e+00	0.000000e+00	
43	3.396000e-06	0.000000e+00	0.000000e+00	0.000000e+00	
44	3.496000e-06	0.000000e+00	0.000000e+00	0.000000e+00	
45	3.596000e-06	0.000000e+00	0.000000e+00	0.000000e+00	
46	3.696000e-06	0.000000e+00	0.000000e+00	0.000000e+00	
47	3.796000e-06	0.000000e+00	0.000000e+00	0.000000e+00	
48	3.896000e-06	0.000000e+00	0.000000e+00	0.000000e+00	
49	3.996000e-06	0.000000e+00	0.000000e+00	0.000000e+00	
50	4.096000e-06	0.000000e+00	0.000000e+00	0.000000e+00	
51	4.196000e-06	0.000000e+00	0.000000e+00	0.000000e+00	
52	4.296000e-06	0.000000e+00	0.000000e+00	0.000000e+00	
53	4.396000e-06	0.000000e+00	0.000000e+00	0.000000e+00	
54	4.496000e-06	0.000000e+00	0.000000e+00	0.000000e+00	

Index   time            v(gate)         v(outh)         v(outl)         
--------------------------------------------------------------------------------
55	4.596000e-06	0.000000e+00	0.000000e+00	0.000000e+00	
56	4.696000e-06	0.000000e+00	0.000000e+00	0.000000e+00	
57	4.796000e-06	0.000000e+00	0.000000e+00	0.000000e+00	
58	4.896000e-06	0.000000e+00	0.000000e+00	0.000000e+00	
59	4.996000e-06	0.000000e+00	0.000000e+00	0.000000e+00	
60	5.000000e-06	0.000000e+00	0.000000e+00	0.000000e+00	
61	5.000081e-06	0.000000e+00	0.000000e+00	0.000000e+00	
62	5.000242e-06	0.000000e+00	0.000000e+00	0.000000e+00	
63	5.000564e-06	0.000000e+00	0.000000e+00	0.000000e+00	
64	5.001036e-06	0.000000e+00	0.000000e+00	0.000000e+00	
65	5.001981e-06	0.000000e+00	0.000000e+00	0.000000e+00	
66	5.003731e-06	0.000000e+00	0.000000e+00	0.000000e+00	
67	5.006398e-06	0.000000e+00	0.000000e+00	0.000000e+00	
68	5.009291e-06	0.000000e+00	0.000000e+00	0.000000e+00	
69	5.010000e-06	0.000000e+00	0.000000e+00	0.000000e+00	
70	5.010559e-06	0.000000e+00	0.000000e+00	0.000000e+00	
71	5.011678e-06	0.000000e+00	0.000000e+00	0.000000e+00	
72	5.013915e-06	0.000000e+00	0.000000e+00	0.000000e+00	
73	5.016014e-06	1.015131e+00	7.887055e+00	1.103166e+01	
74	5.017526e-06	2.177643e+00	8.839189e+00	1.123081e+01	
75	5.018934e-06	2.797028e+00	8.610767e+00	1.119318e+01	
76	5.020722e-06	3.232560e+00	9.194991e+00	1.132440e+01	
77	5.023092e-06	3.502216e+00	8.907075e+00	1.125738e+01	
78	5.026197e-06	3.626889e+00	9.322552e+00	1.135922e+01	
79	5.030700e-06	3.669730e+00	8.985194e+00	1.127290e+01	
80	5.038121e-06	3.673896e+00	9.330865e+00	1.136315e+01	
81	5.050702e-06	3.673643e+00	8.992209e+00	1.127342e+01	
82	5.075862e-06	3.673411e+00	9.327643e+00	1.136301e+01	
83	5.122584e-06	3.673770e+00	8.993801e+00	1.127348e+01	
84	5.215071e-06	3.673365e+00	9.326803e+00	1.136298e+01	
85	5.315071e-06	3.673820e+00	8.994244e+00	1.127351e+01	
86	5.415071e-06	3.673364e+00	9.326219e+00	1.136296e+01	
87	5.515071e-06	3.673845e+00	8.994735e+00	1.127352e+01	
88	5.615071e-06	3.673348e+00	9.325707e+00	1.136294e+01	
89	5.715071e-06	3.673861e+00	8.995239e+00	1.127354e+01	
90	5.815071e-06	3.673333e+00	9.325203e+00	1.136292e+01	
91	5.915071e-06	3.673874e+00	8.995739e+00	1.127356e+01	
92	6.015071e-06	3.673322e+00	9.324702e+00	1.136291e+01	
93	6.115071e-06	3.673884e+00	8.996238e+00	1.127358e+01	
94	6.215071e-06	3.673313e+00	9.324204e+00	1.136289e+01	
95	6.315071e-06	3.673893e+00	8.996734e+00	1.127359e+01	
96	6.415071e-06	3.673306e+00	9.323708e+00	1.136287e+01	
97	6.515071e-06	3.673899e+00	8.997228e+00	1.127361e+01	
98	6.615071e-06	3.673300e+00	9.323215e+00	1.136286e+01	
99	6.715071e-06	3.673904e+00	8.997720e+00	1.127363e+01	
100	6.815071e-06	3.673296e+00	9.322723e+00	1.136284e+01	
101	6.915071e-06	3.673908e+00	8.998210e+00	1.127364e+01	
102	7.015071e-06	3.673293e+00	9.322233e+00	1.136282e+01	
103	7.115071e-06	3.673911e+00	8.998698e+00	1.127366e+01	
104	7.215071e-06	3.673291e+00	9.321745e+00	1.136281e+01	
105	7.315071e-06	3.673913e+00	8.999184e+00	1.127368e+01	
106	7.415071e-06	3.673289e+00	9.321258e+00	1.136279e+01	
107	7.515071e-06	3.673915e+00	8.999669e+00	1.127369e+01	
108	7.615071e-06	3.673288e+00	9.320773e+00	1.136277e+01	
109	7.715071e-06	3.673916e+00	9.000152e+00	1.127371e+01	
110	7.815071e-06	3.673287e+00	9.320290e+00	1.136276e+01	
111	7.915071e-06	3.673917e+00	9.000634e+00	1.127373e+01	
112	8.015071e-06	3.673287e+00	9.319809e+00	1.136274e+01	

Index   time            v(gate)         v(outh)         v(outl)         
--------------------------------------------------------------------------------
113	8.115071e-06	3.673917e+00	9.001113e+00	1.127374e+01	
114	8.215071e-06	3.673286e+00	9.319329e+00	1.136273e+01	
115	8.315071e-06	3.673918e+00	9.001592e+00	1.127376e+01	
116	8.415071e-06	3.673287e+00	9.318850e+00	1.136271e+01	
117	8.515071e-06	3.673918e+00	9.002069e+00	1.127377e+01	
118	8.615071e-06	3.673287e+00	9.318373e+00	1.136269e+01	
119	8.715071e-06	3.673918e+00	9.002544e+00	1.127379e+01	
120	8.815071e-06	3.673287e+00	9.317898e+00	1.136268e+01	
121	8.915071e-06	3.673917e+00	9.003018e+00	1.127381e+01	
122	9.015071e-06	3.673288e+00	9.317423e+00	1.136266e+01	
123	9.115071e-06	3.673917e+00	9.003491e+00	1.127382e+01	
124	9.215071e-06	3.673288e+00	9.316951e+00	1.136265e+01	
125	9.315071e-06	3.673916e+00	9.003962e+00	1.127384e+01	
126	9.415071e-06	3.673289e+00	9.316480e+00	1.136263e+01	
127	9.515071e-06	3.673916e+00	9.004431e+00	1.127385e+01	
128	9.615071e-06	3.673290e+00	9.316010e+00	1.136261e+01	
129	9.715071e-06	3.673915e+00	9.004899e+00	1.127387e+01	
130	9.815071e-06	3.673291e+00	9.315542e+00	1.136260e+01	
131	9.915071e-06	3.673915e+00	9.005366e+00	1.127389e+01	
132	1.001507e-05	3.673291e+00	9.315075e+00	1.136258e+01	
133	1.011507e-05	3.673914e+00	9.005832e+00	1.127390e+01	
134	1.021507e-05	3.673292e+00	9.314609e+00	1.136256e+01	
135	1.031507e-05	3.673914e+00	9.006295e+00	1.127392e+01	
136	1.041507e-05	3.673293e+00	9.314145e+00	1.136255e+01	
137	1.051507e-05	3.673913e+00	9.006758e+00	1.127394e+01	
138	1.061507e-05	3.673294e+00	9.313683e+00	1.136253e+01	
139	1.071507e-05	3.673912e+00	9.007219e+00	1.127395e+01	
140	1.081507e-05	3.673295e+00	9.313222e+00	1.136252e+01	
141	1.091507e-05	3.673911e+00	9.007679e+00	1.127397e+01	
142	1.101507e-05	3.673296e+00	9.312762e+00	1.136250e+01	
143	1.111507e-05	3.673911e+00	9.008137e+00	1.127398e+01	
144	1.121507e-05	3.673297e+00	9.312303e+00	1.136248e+01	
145	1.131507e-05	3.673910e+00	9.008594e+00	1.127400e+01	
146	1.141507e-05	3.673298e+00	9.311846e+00	1.136247e+01	
147	1.151507e-05	3.673909e+00	9.009050e+00	1.127402e+01	
148	1.161507e-05	3.673299e+00	9.311390e+00	1.136245e+01	
149	1.171507e-05	3.673908e+00	9.009504e+00	1.127403e+01	
150	1.181507e-05	3.673300e+00	9.310936e+00	1.136244e+01	
151	1.191507e-05	3.673908e+00	9.009957e+00	1.127405e+01	
152	1.201507e-05	3.673300e+00	9.310483e+00	1.136242e+01	
153	1.211507e-05	3.673907e+00	9.010408e+00	1.127406e+01	
154	1.221507e-05	3.673301e+00	9.310032e+00	1.136240e+01	
155	1.231507e-05	3.673906e+00	9.010858e+00	1.127408e+01	
156	1.241507e-05	3.673302e+00	9.309581e+00	1.136239e+01	
157	1.251507e-05	3.673906e+00	9.011307e+00	1.127410e+01	
158	1.261507e-05	3.673303e+00	9.309133e+00	1.136237e+01	
159	1.271507e-05	3.673905e+00	9.011755e+00	1.127411e+01	
160	1.281507e-05	3.673304e+00	9.308685e+00	1.136236e+01	
161	1.291507e-05	3.673904e+00	9.012201e+00	1.127413e+01	
162	1.301507e-05	3.673305e+00	9.308239e+00	1.136234e+01	
163	1.311507e-05	3.673903e+00	9.012646e+00	1.127414e+01	
164	1.321507e-05	3.673306e+00	9.307794e+00	1.136232e+01	
165	1.331507e-05	3.673903e+00	9.013089e+00	1.127416e+01	
166	1.341507e-05	3.673307e+00	9.307350e+00	1.136231e+01	
167	1.351507e-05	3.673902e+00	9.013531e+00	1.127418e+01	
168	1.361507e-05	3.673308e+00	9.306908e+00	1.136229e+01	
169	1.371507e-05	3.673901e+00	9.013972e+00	1.127419e+01	
170	1.381507e-05	3.673309e+00	9.306467e+00	1.136228e+01	

Index   time            v(gate)         v(outh)         v(outl)         
--------------------------------------------------------------------------------
171	1.391507e-05	3.673900e+00	9.014411e+00	1.127421e+01	
172	1.401507e-05	3.673310e+00	9.306028e+00	1.136226e+01	
173	1.411507e-05	3.673900e+00	9.014849e+00	1.127422e+01	
174	1.421507e-05	3.673311e+00	9.305590e+00	1.136224e+01	
175	1.431507e-05	3.673899e+00	9.015286e+00	1.127424e+01	
176	1.441507e-05	3.673312e+00	9.305153e+00	1.136223e+01	
177	1.451507e-05	3.673898e+00	9.015722e+00	1.127426e+01	
178	1.461507e-05	3.673313e+00	9.304717e+00	1.136221e+01	
179	1.471507e-05	3.673897e+00	9.016156e+00	1.127427e+01	
180	1.481507e-05	3.673313e+00	9.304283e+00	1.136220e+01	
181	1.491507e-05	3.673897e+00	9.016589e+00	1.127429e+01	
182	1.501507e-05	3.673314e+00	9.303850e+00	1.136218e+01	
183	1.511507e-05	3.673896e+00	9.017020e+00	1.127430e+01	
184	1.521507e-05	3.673315e+00	9.303419e+00	1.136217e+01	
185	1.531507e-05	3.673895e+00	9.017451e+00	1.127432e+01	
186	1.541507e-05	3.673316e+00	9.302988e+00	1.136215e+01	
187	1.551507e-05	3.673894e+00	9.017880e+00	1.127433e+01	
188	1.561507e-05	3.673317e+00	9.302559e+00	1.136213e+01	
189	1.571507e-05	3.673894e+00	9.018307e+00	1.127435e+01	
190	1.581507e-05	3.673318e+00	9.302131e+00	1.136212e+01	
191	1.591507e-05	3.673893e+00	9.018734e+00	1.127437e+01	
192	1.601507e-05	3.673319e+00	9.301705e+00	1.136210e+01	
193	1.611507e-05	3.673892e+00	9.019159e+00	1.127438e+01	
194	1.621507e-05	3.673320e+00	9.301280e+00	1.136209e+01	
195	1.631507e-05	3.673891e+00	9.019583e+00	1.127440e+01	
196	1.641507e-05	3.673321e+00	9.300856e+00	1.136207e+01	
197	1.651507e-05	3.673891e+00	9.020005e+00	1.127441e+01	
198	1.661507e-05	3.673322e+00	9.300433e+00	1.136205e+01	
199	1.671507e-05	3.673890e+00	9.020427e+00	1.127443e+01	
200	1.681507e-05	3.673323e+00	9.300012e+00	1.136204e+01	
201	1.691507e-05	3.673889e+00	9.020847e+00	1.127445e+01	
202	1.701507e-05	3.673323e+00	9.299592e+00	1.136202e+01	
203	1.711507e-05	3.673889e+00	9.021265e+00	1.127446e+01	
204	1.721507e-05	3.673324e+00	9.299173e+00	1.136201e+01	
205	1.731507e-05	3.673888e+00	9.021683e+00	1.127448e+01	
206	1.741507e-05	3.673325e+00	9.298755e+00	1.136199e+01	
207	1.751507e-05	3.673887e+00	9.022099e+00	1.127449e+01	
208	1.761507e-05	3.673326e+00	9.298339e+00	1.136197e+01	
209	1.771507e-05	3.673886e+00	9.022514e+00	1.127451e+01	
210	1.781507e-05	3.673327e+00	9.297924e+00	1.136196e+01	
211	1.791507e-05	3.673886e+00	9.022928e+00	1.127453e+01	
212	1.801507e-05	3.673328e+00	9.297510e+00	1.136194e+01	
213	1.811507e-05	3.673885e+00	9.023341e+00	1.127454e+01	
214	1.821507e-05	3.673329e+00	9.297097e+00	1.136193e+01	
215	1.831507e-05	3.673884e+00	9.023752e+00	1.127456e+01	
216	1.841507e-05	3.673330e+00	9.296686e+00	1.136191e+01	
217	1.851507e-05	3.673884e+00	9.024162e+00	1.127457e+01	
218	1.861507e-05	3.673330e+00	9.296276e+00	1.136190e+01	
219	1.871507e-05	3.673883e+00	9.024571e+00	1.127459e+01	
220	1.881507e-05	3.673331e+00	9.295867e+00	1.136188e+01	
221	1.891507e-05	3.673882e+00	9.024978e+00	1.127460e+01	
222	1.901507e-05	3.673332e+00	9.295460e+00	1.136186e+01	
223	1.911507e-05	3.673882e+00	9.025385e+00	1.127462e+01	
224	1.921507e-05	3.673333e+00	9.295053e+00	1.136185e+01	
225	1.931507e-05	3.673881e+00	9.025790e+00	1.127464e+01	
226	1.941507e-05	3.673334e+00	9.294648e+00	1.136183e+01	
227	1.951507e-05	3.673880e+00	9.026194e+00	1.127465e+01	
228	1.961507e-05	3.673335e+00	9.294244e+00	1.136182e+01	

Index   time            v(gate)         v(outh)         v(outl)         
--------------------------------------------------------------------------------
229	1.971507e-05	3.673879e+00	9.026597e+00	1.127467e+01	
230	1.981507e-05	3.673335e+00	9.293841e+00	1.136180e+01	
231	1.991507e-05	3.673879e+00	9.026998e+00	1.127468e+01	
232	2.001507e-05	3.673336e+00	9.293440e+00	1.136178e+01	
233	2.011507e-05	3.673878e+00	9.027399e+00	1.127470e+01	
234	2.021507e-05	3.673337e+00	9.293039e+00	1.136177e+01	
235	2.031507e-05	3.673877e+00	9.027798e+00	1.127472e+01	
236	2.041507e-05	3.673338e+00	9.292640e+00	1.136175e+01	
237	2.051507e-05	3.673877e+00	9.028196e+00	1.127473e+01	
238	2.061507e-05	3.673339e+00	9.292242e+00	1.136174e+01	
239	2.071507e-05	3.673876e+00	9.028592e+00	1.127475e+01	
240	2.081507e-05	3.673340e+00	9.291845e+00	1.136172e+01	
241	2.091507e-05	3.673875e+00	9.028988e+00	1.127476e+01	
242	2.101507e-05	3.673340e+00	9.291450e+00	1.136171e+01	
243	2.111507e-05	3.673875e+00	9.029382e+00	1.127478e+01	
244	2.121507e-05	3.673341e+00	9.291056e+00	1.136169e+01	
245	2.131507e-05	3.673874e+00	9.029775e+00	1.127479e+01	
246	2.141507e-05	3.673342e+00	9.290662e+00	1.136167e+01	
247	2.151507e-05	3.673873e+00	9.030167e+00	1.127481e+01	
248	2.161507e-05	3.673343e+00	9.290270e+00	1.136166e+01	
249	2.171507e-05	3.673873e+00	9.030558e+00	1.127483e+01	
250	2.181507e-05	3.673344e+00	9.289880e+00	1.136164e+01	
251	2.191507e-05	3.673872e+00	9.030948e+00	1.127484e+01	
252	2.201507e-05	3.673345e+00	9.289490e+00	1.136163e+01	
253	2.211507e-05	3.673871e+00	9.031336e+00	1.127486e+01	
254	2.221507e-05	3.673345e+00	9.289101e+00	1.136161e+01	
255	2.231507e-05	3.673871e+00	9.031724e+00	1.127487e+01	
256	2.241507e-05	3.673346e+00	9.288714e+00	1.136160e+01	
257	2.251507e-05	3.673870e+00	9.032110e+00	1.127489e+01	
258	2.261507e-05	3.673347e+00	9.288328e+00	1.136158e+01	
259	2.271507e-05	3.673869e+00	9.032495e+00	1.127490e+01	
260	2.281507e-05	3.673348e+00	9.287943e+00	1.136156e+01	
261	2.291507e-05	3.673869e+00	9.032879e+00	1.127492e+01	
262	2.301507e-05	3.673349e+00	9.287559e+00	1.136155e+01	
263	2.311507e-05	3.673868e+00	9.033261e+00	1.127494e+01	
264	2.321507e-05	3.673349e+00	9.287177e+00	1.136153e+01	
265	2.331507e-05	3.673867e+00	9.033643e+00	1.127495e+01	
266	2.341507e-05	3.673350e+00	9.286795e+00	1.136152e+01	
267	2.351507e-05	3.673867e+00	9.034023e+00	1.127497e+01	
268	2.361507e-05	3.673351e+00	9.286415e+00	1.136150e+01	
269	2.371507e-05	3.673866e+00	9.034402e+00	1.127498e+01	
270	2.381507e-05	3.673352e+00	9.286036e+00	1.136149e+01	
271	2.391507e-05	3.673865e+00	9.034781e+00	1.127500e+01	
272	2.401507e-05	3.673353e+00	9.285657e+00	1.136147e+01	
273	2.411507e-05	3.673865e+00	9.035157e+00	1.127501e+01	
274	2.421507e-05	3.673353e+00	9.285280e+00	1.136145e+01	
275	2.431507e-05	3.673864e+00	9.035533e+00	1.127503e+01	
276	2.441507e-05	3.673354e+00	9.284905e+00	1.136144e+01	
277	2.451507e-05	3.673863e+00	9.035908e+00	1.127505e+01	
278	2.461507e-05	3.673355e+00	9.284530e+00	1.136142e+01	
279	2.471507e-05	3.673863e+00	9.036282e+00	1.127506e+01	
280	2.481507e-05	3.673356e+00	9.284156e+00	1.136141e+01	
281	2.491507e-05	3.673862e+00	9.036654e+00	1.127508e+01	
282	2.501507e-05	3.673357e+00	9.283784e+00	1.136139e+01	
283	2.511507e-05	3.673862e+00	9.037025e+00	1.127509e+01	
284	2.521507e-05	3.673357e+00	9.283413e+00	1.136138e+01	
285	2.531507e-05	3.673861e+00	9.037396e+00	1.127511e+01	
286	2.541507e-05	3.673358e+00	9.283043e+00	1.136136e+01	

Index   time            v(gate)         v(outh)         v(outl)         
--------------------------------------------------------------------------------
287	2.551507e-05	3.673860e+00	9.037765e+00	1.127512e+01	
288	2.561507e-05	3.673359e+00	9.282673e+00	1.136135e+01	
289	2.571507e-05	3.673860e+00	9.038133e+00	1.127514e+01	
290	2.581507e-05	3.673360e+00	9.282305e+00	1.136133e+01	
291	2.591507e-05	3.673859e+00	9.038500e+00	1.127516e+01	
292	2.601507e-05	3.673360e+00	9.281939e+00	1.136131e+01	
293	2.611507e-05	3.673858e+00	9.038865e+00	1.127517e+01	
294	2.621507e-05	3.673361e+00	9.281573e+00	1.136130e+01	
295	2.631507e-05	3.673858e+00	9.039230e+00	1.127519e+01	
296	2.641507e-05	3.673362e+00	9.281208e+00	1.136128e+01	
297	2.651507e-05	3.673857e+00	9.039594e+00	1.127520e+01	
298	2.661507e-05	3.673363e+00	9.280845e+00	1.136127e+01	
299	2.671507e-05	3.673856e+00	9.039956e+00	1.127522e+01	
300	2.681507e-05	3.673363e+00	9.280482e+00	1.136125e+01	
301	2.691507e-05	3.673856e+00	9.040318e+00	1.127523e+01	
302	2.701507e-05	3.673364e+00	9.280121e+00	1.136124e+01	
303	2.711507e-05	3.673855e+00	9.040678e+00	1.127525e+01	
304	2.721507e-05	3.673365e+00	9.279760e+00	1.136122e+01	
305	2.731507e-05	3.673855e+00	9.041037e+00	1.127526e+01	
306	2.741507e-05	3.673366e+00	9.279401e+00	1.136120e+01	
307	2.751507e-05	3.673854e+00	9.041395e+00	1.127528e+01	
308	2.761507e-05	3.673366e+00	9.279043e+00	1.136119e+01	
309	2.771507e-05	3.673853e+00	9.041752e+00	1.127530e+01	
310	2.781507e-05	3.673367e+00	9.278686e+00	1.136117e+01	
311	2.791507e-05	3.673853e+00	9.042108e+00	1.127531e+01	
312	2.801507e-05	3.673368e+00	9.278330e+00	1.136116e+01	
313	2.811507e-05	3.673852e+00	9.042463e+00	1.127533e+01	
314	2.821507e-05	3.673369e+00	9.277975e+00	1.136114e+01	
315	2.831507e-05	3.673851e+00	9.042817e+00	1.127534e+01	
316	2.841507e-05	3.673369e+00	9.277621e+00	1.136113e+01	
317	2.851507e-05	3.673851e+00	9.043170e+00	1.127536e+01	
318	2.861507e-05	3.673370e+00	9.277269e+00	1.136111e+01	
319	2.871507e-05	3.673850e+00	9.043522e+00	1.127537e+01	
320	2.881507e-05	3.673371e+00	9.276917e+00	1.136110e+01	
321	2.891507e-05	3.673850e+00	9.043873e+00	1.127539e+01	
322	2.901507e-05	3.673372e+00	9.276566e+00	1.136108e+01	
323	2.911507e-05	3.673849e+00	9.044222e+00	1.127540e+01	
324	2.921507e-05	3.673372e+00	9.276217e+00	1.136106e+01	
325	2.931507e-05	3.673848e+00	9.044571e+00	1.127542e+01	
326	2.941507e-05	3.673373e+00	9.275868e+00	1.136105e+01	
327	2.951507e-05	3.673848e+00	9.044918e+00	1.127544e+01	
328	2.961507e-05	3.673374e+00	9.275520e+00	1.136103e+01	
329	2.971507e-05	3.673847e+00	9.045265e+00	1.127545e+01	
330	2.981507e-05	3.673374e+00	9.275174e+00	1.136102e+01	
331	2.991507e-05	3.673847e+00	9.045610e+00	1.127547e+01	
